! Generated RF sample for VNA Touchstone diagnostics
! Source: local sample generator
# MHZ S MA R 50
! freq S11
760 0.573226477606 33.36 ! calibrated sweep point
768.125 0.577479811163 29.99625
776.25 0.581831354858 26.6325
784.375 0.586109311627 23.26875
792.5 0.590140646181 19.905
800.625 0.593748355202 16.54125
808.75 0.596731774807 13.1775
816.875 0.598809039488 9.81375
825 0.599489227643 6.45
833.125 0.597842767335 3.08625
841.25 0.592180347354 -0.2775
849.375 0.579761485324 -3.64125
857.5 0.556819872999 -7.005
865.625 0.519302172524 -10.36875
873.75 0.464568462007 -13.7325
881.875 0.393754572725 -17.09625
890 0.313717841876 -20.46
898.125 0.237053247627 -23.82375 ! calibrated sweep point
906.25 0.179218807563 -27.1875
914.375 0.153388051445 -30.55125
922.5 0.165328400046 -33.915
930.625 0.211041361747 -37.27875
938.75 0.27850981035 -40.6425
946.875 0.352546121564 -44.00625
955 0.420105455239 -47.37
963.125 0.473588160618 -50.73375
971.25 0.511227754731 -54.0975
979.375 0.535337593984 -57.46125
987.5 0.549920184926 -60.825
995.625 0.558825310176 -64.18875
1003.75 0.564871723351 -67.5525
1011.875 0.569741868246 -70.91625
1020 0.574253370022 -74.28
1028.125 0.578694858829 -77.64375
1036.25 0.583080758133 -81.0075 ! calibrated sweep point
1044.375 0.587301143781 -84.37125
1052.5 0.591192413167 -87.735
1060.625 0.594557780804 -91.09875
1068.75 0.597153548895 -94.4625
1076.875 0.598645083405 -97.82625
1085 0.598532710887 -101.19
1093.125 0.596055628119 -104.55375
1101.25 0.59010257933 -107.9175
1109.375 0.579187417345 -111.28125
1117.5 0.561571582558 -114.645
1125.625 0.535609540633 -118.00875
1133.75 0.500332797593 -121.3725
1141.875 0.456169692494 -124.73625
1150 0.40555957187 -128.1
1158.125 0.353139787658 -131.46375
1166.25 0.305245366056 -134.8275
1174.375 0.268690707365 -138.19125 ! calibrated sweep point
1182.5 0.24912509513 -141.555
1190.625 0.249508795772 -144.91875
1198.75 0.269285669866 -148.2825
1206.875 0.304582286486 -151.64625
1215 0.349350707878 -155.01
1223.125 0.397001808519 -158.37375
1231.25 0.441931520852 -161.7375
1239.375 0.480472194379 -165.10125
1247.5 0.511103494721 -168.465
1255.625 0.534059490813 -171.82875
1263.75 0.550636254883 -175.1925
1271.875 0.562503539811 -178.55625
1280 0.571210569714 178.08
