! Task-owned RF sample generated for VNA Touchstone diagnostics
! Source: tests/generate_owned_touchstone_data.py
# MHZ S DB R 50
! freq S11 S12 S21 S22
120 -21.6167775042 -38.752 -0.233244031363 165.05392 ! split record
-0.158607339012 163.96 -19.6495722361 34.52
133.333333333 -21.5318589885 -39.28 -0.232829711337 142.4488 -0.159091205476 141.4 -19.6947517576 33.8
146.666666667 -21.4501456903 -39.808 -0.232520604732 119.84368 ! split record
-0.159768544943 118.84 -19.744271151 33.08
160 -21.3717674469 -40.336 -0.232334763756 97.23856 -0.160655555302 96.28 -19.7980023043 32.36
173.333333333 -21.2968448549 -40.864 -0.232289686526 74.63344 ! split record
-0.161767718641 73.72 -19.855803398 31.64
186.666666667 -21.2254896639 -41.392 -0.232402265778 52.02832 -0.163119753921 51.16 -19.9175185547 30.92
200 -21.157805162 -41.92 -0.232688739905 29.4232 ! split record
-0.164725572288 28.6 -19.9829774873 30.2
213.333333333 -21.0938865473 -42.448 -0.233164646432 6.81808 -0.166598235108 6.04 -20.0519951537 29.48
226.666666667 -21.0338212871 -42.976 -0.233844778016 -15.78704 ! split record
-0.168749914814 -16.52 -20.1243714295 28.76
240 -20.9776894587 -43.504 -0.23474314104 -38.39216 -0.171191858626 -39.08 -20.1998908078 28.04
253.333333333 -20.9255640727 -44.032 -0.235872916897 -60.99728 ! split record
-0.17393435521 -61.64 -20.27832214 27.32
266.666666667 -20.8775113761 -44.56 -0.23724642601 -83.6024 -0.176986704335 -84.2 -20.3594184314 26.6
280 -20.8335911352 -45.088 -0.238875094663 -106.20752 ! split record
-0.180357189567 -106.76 -20.4429167049 25.88
293.333333333 -20.7938568967 -45.616 -0.240769424689 -128.81264 -0.184053054054 -129.32 -20.5285379527 25.16
306.666666667 -20.7583562257 -46.144 -0.242938966066 -151.41776 ! split record
-0.188080479418 -151.88 -20.61598719 24.44
320 -20.7271309223 -46.672 -0.245392292474 -174.02288 -0.192444567815 -174.44 -20.7049536319 23.72
333.333333333 -20.7002172141 -47.2 -0.24813697983 163.372 ! split record
-0.197149327152 163 -20.795111012 23
346.666666667 -20.6776459254 -47.728 -0.251179587865 140.76688 -0.202197659505 140.44 -20.8861180631 22.28 ! calibrated sweep point
360 -20.6594426232 -48.256 -0.254525644739 118.16176 ! split record
-0.207591352751 117.88 -20.9776191796 21.56
373.333333333 -20.6456277394 -48.784 -0.258179634752 95.55664 -0.213331075414 95.32 -21.069245281 20.84
386.666666667 -20.6362166691 -49.312 -0.262144989152 72.95152 ! split record
-0.219416374736 72.76 -21.1606148965 20.12
400 -20.6312198451 -49.84 -0.266424080058 50.3464 -0.225845677986 50.2 -21.2513354844 19.4
413.333333333 -20.6306427887 -50.368 -0.271018217526 27.74128 ! split record
-0.232616296989 27.64 -21.3410050035 18.68
426.666666667 -20.6344861368 -50.896 -0.275927649749 5.13616 -0.23972443588 5.08 -21.4292137442 17.96
440 -20.6427456448 -51.424 -0.281151566411 -17.46896 ! split record
-0.247165202069 -17.48 -21.5155464272 17.24
453.333333333 -20.6554121659 -51.952 -0.286688105186 -40.07408 -0.254932620401 -40.04 -21.5995845679 16.52
466.666666667 -20.6724716068 -52.48 -0.292534361381 -62.6792 ! split record
-0.263019650504 -62.6 -21.680909103 15.8
480 -20.6939048591 -53.008 -0.298686400717 -85.28432 -0.271418207277 -85.16 -21.7591032639 15.08
493.333333333 -20.719687707 -53.536 -0.305139275228 -107.88944 ! split record
-0.280119184517 -107.72 -21.833755676 14.36
506.666666667 -20.7497907118 -54.064 -0.311887042268 -130.49456 -0.289112481628 -130.28 -21.9044636545 13.64
520 -20.7841790718 -54.592 -0.318922786582 -153.09968 ! split record
-0.298387033387 -152.84 -21.9708366578 12.92
533.333333333 -20.8228124594 -55.12 -0.32623864543 -175.7048 -0.30793084271 -175.4 -22.032499851 12.2
546.666666667 -20.8656448343 -55.648 -0.333825836707 161.69008 ! split record
-0.317731016373 162.04 -22.0890977251 11.48
560 -20.9126242335 -56.176 -0.341674690025 139.08496 -0.327773803614 139.48 -22.1402977087 10.76
573.333333333 -20.9636925387 -56.704 -0.349774680685 116.47984 ! split record
-0.338044637565 116.92 -22.1857937054 10.04
586.666666667 -21.018785221 -57.232 -0.358114466497 93.87472 -0.348528179421 94.36 -22.2253094841 9.32
600 -21.0778310639 -57.76 -0.36668192735 71.2696 ! split record
-0.359208365268 71.8 -22.25860185 8.6
613.333333333 -21.1407518653 -58.288 -0.37546420747 48.66448 -0.370068455473 49.24 -22.2854635237 7.88
626.666666667 -21.2074621196 -58.816 -0.384447760259 26.05936 ! split record
-0.381091086528 26.68 -22.305725659 7.16
640 -21.2778686804 -59.344 -0.393618395615 3.45424 -0.392258325239 4.12 -22.3192599384 6.44
653.333333333 -21.3518704071 -59.872 -0.402961329624 -19.15088 ! split record
-0.403551725125 -18.44 -22.325980191 5.72
666.666666667 -21.4293577958 -60.4 -0.412461236487 -41.756 -0.414952384895 -41 -22.3258434929 5
680 -21.5102125969 -60.928 -0.42210230255 -64.36112 ! split record
-0.426441008854 -63.56 -22.3188507179 4.28
693.333333333 -21.5943074241 -61.456 -0.431868282288 -86.96624 -0.437997969081 -86.12 -22.3050465272 3.56
706.666666667 -21.6815053553 -61.984 -0.441742556077 -109.57136 ! split record
-0.449603369195 -108.68 -22.2845187946 2.84
720 -21.7716595324 -62.512 -0.451708189585 -132.17648 -0.461237109549 -131.24 -22.2573974865 2.12
733.333333333 -21.8646127621 -63.04 -0.461747994597 -154.7816 ! split record
-0.472878953632 -153.8 -22.2238530228 1.4
746.666666667 -21.9601971255 -63.568 -0.471844591064 -177.38672 -0.48450859549 -176.36 -22.1840941644 0.68
760 -22.0582336002 -64.096 -0.481980470195 160.00816 ! split record
-0.49610572795 161.08 -22.138365479 -0.04
773.333333333 -22.1585317045 -64.624 -0.492138058338 137.40304 -0.507650111415 138.52 -22.0869444497 -0.76
786.666666667 -22.2608891698 -65.152 -0.502299781458 114.79792 ! split record
-0.519121642986 115.96 -22.0301382936 -1.48
800 -22.365091651 -65.68 -0.512448129942 92.1928 -0.530500425696 93.4 -21.9682805639 -2.2 ! calibrated sweep point
813.333333333 -22.470912485 -66.208 -0.522565723506 69.58768 ! split record
-0.541766837562 70.84 -21.9017276089 -2.92
826.666666667 -22.5781125069 -66.736 -0.532635375941 46.98256 -0.552901600235 48.28 -21.830854958 -3.64
840 -22.6864399381 -67.264 -0.542640159439 24.37744 ! split record
-0.563885846953 25.72 -21.7560537041 -4.36
853.333333333 -22.7956303556 -67.792 -0.552563468237 1.77232 -0.574701189545 3.16 -21.6777269433 -5.08
866.666666667 -22.9054067598 -68.32 -0.562389081311 -20.8328 ! split record
-0.585329784204 -19.4 -21.5962863267 -5.8
880 -23.0154797509 -68.848 -0.572101223843 -43.43792 -0.595754395766 -41.96 -21.5121487725 -6.52
893.333333333 -23.1255478317 -69.376 -0.581684627202 -66.04304 ! split record
-0.605958460202 -64.52 -21.4257333741 -7.24
906.666666667 -23.2352978489 -69.904 -0.591124587161 -88.64816 -0.615926145072 -87.08 -21.3374585369 -7.96
920 -23.3444055885 -70.432 -0.600407020087 -111.25328 ! split record
-0.625642407656 -109.64 -21.247739362 -8.68
