! Task-owned RF sample generated for VNA Touchstone diagnostics
! Source: tests/generate_owned_touchstone_data.py
# GHZ S RI R 50
! freq S11 S12 S21 S22
5.15 0.0548191638465 -0.454330824364 -0.0498012039327 -0.189111302361 0.148675539859 -0.12878679257 -0.191046995149 -0.455818434264 ! calibrated sweep point
5.16625 0.0417431872094 -0.454985024599 -0.0959029522117 -0.17511798908 0.116240171471 -0.163853322623 -0.205048557087 -0.44882691416
5.1825 0.0286435305759 -0.454769247487 -0.138422961838 -0.150212946487 0.0757115202379 -0.191176727366 -0.218561741171 -0.440927245902
5.19875 0.01557163053 -0.453630991617 -0.174995703758 -0.115324273048 0.0288560236007 -0.209093291283 -0.231502075522 -0.432102603965
5.215 0.0025848475192 -0.451522059999 -0.20353828435 -0.0718035464772 -0.0223190232937 -0.216346010543 -0.243781681251 -0.422344391438
5.23125 -0.0102539120159 -0.448399621961 -0.222231463109 -0.0213120926886 -0.0756514073873 -0.212014627814 -0.255310324548 -0.411653071388
5.2475 -0.0228767093751 -0.444227284619 -0.229443509079 0.0341913915718 -0.128794643144 -0.195438644248 -0.265996615043 -0.400038914019
5.26375 -0.0352112287363 -0.43897615836 -0.223706715483 0.0923399736115 -0.179099378951 -0.166240196432 -0.275749345327 -0.387522639153
5.28 -0.0471815774343 -0.432625898349 -0.203852460597 0.150200753306 -0.223517203166 -0.12451029235 -0.284478963077 -0.374135932421
5.29625 -0.0587092327672 -0.42516570155 -0.169325011334 0.204220523118 -0.258669703298 -0.0711159524549 -0.292099163118 -0.359921812737
5.3125 -0.0697141337853 -0.416595236371 -0.12056538858 0.250411509437 -0.281162099164 -0.00797634587535 -0.298528582229 -0.344934828344
5.32875 -0.0801159129941 -0.406925479871 -0.0592671951785 0.28479685286 -0.288080833623 0.0618775178027 -0.303692574474 -0.329241059102
5.345 -0.0898352588017 -0.396179435739 0.0116670635133 0.303971942239 -0.27747860816 0.134556874809 -0.307525039598 -0.312917903951
5.36125 -0.0987953949322 -0.384392705072 0.0884872040673 0.30553484613 -0.248618022617 0.205802652789 -0.309970271614 -0.296053634624
5.3775 -0.106923658002 -0.371613881591 0.167092886248 0.288186882003 -0.201865342884 0.271465313649 -0.310984789451 -0.27874669999
5.39375 -0.114153149165 -0.357904743474 0.243376589091 0.251503385151 -0.138347673706 0.327714251276 -0.310539106607 -0.261104769799
5.41 -0.120424430349 -0.343340215556 0.313203343778 0.195613133127 -0.0596709085208 0.370879761449 -0.308619392536 -0.243243512187
5.42625 -0.125687230369 -0.328008078505 0.372076254158 0.121134655818 0.0320027379629 0.397106368826 -0.305228975171 -0.225285105982 ! calibrated sweep point
5.4425 -0.12990212136 -0.31200840559 0.414819669748 0.0295867389465 0.133444819061 0.402204335142 -0.300389631971 -0.207356496556
5.45875 -0.133042121752 -0.295452713042 0.435715762401 -0.0758411397523 0.239687045806 0.38205685755 -0.294142616417 -0.189587412493
5.475 -0.135094178793 -0.278462816583 0.42933637476 -0.189608346802 0.343687637981 0.333638564262 -0.286549368172 -0.172108169464
5.49125 -0.136060481584 -0.261169394392 0.391892343299 -0.303779830517 0.436775951581 0.25628054735 -0.277691858453 -0.15504729706
5.5075 -0.135959555032 -0.243710265482 0.322526636801 -0.408905426675 0.509928735324 0.152549509723 -0.267672527649 -0.138529033588
5.52375 -0.134827086264 -0.226228401745 0.223886830342 -0.495598057071 0.555430560249 0.0282097911207 -0.256613779792 -0.122670742598
5.54 -0.132716438037 -0.208869701724 0.101643121577 -0.556138343684 0.568177173119 -0.10879674409 -0.24465700829 -0.107580312636
5.55625 -0.12969880861 -0.191780563867 -0.0367900077349 -0.585361595416 0.546026993623 -0.249846595596 -0.231961139 -0.0933536081073
5.5725 -0.125863004427 -0.175105306422 -0.183585527858 -0.580491165669 0.4891561728 -0.386797679746 -0.218700690116 -0.0800720436215
5.58875 -0.121314800758 -0.158983489636 -0.33111514104 -0.540251693399 0.399003738105 -0.512220034136 -0.205063363018 -0.0678003565068
5.605 -0.116175875891 -0.143547203237 -0.471566117289 -0.464095627081 0.277681218082 -0.618734988492 -0.191247193735 -0.0565846519112
5.62125 -0.1105823164 -0.128918387827 -0.596035273563 -0.35233756165 0.12842410876 -0.698183639414 -0.177457310396 -0.0464507919292
5.6375 -0.104682704016 -0.115206262388 -0.694069183323 -0.207374406253 -0.0430847719233 -0.741595127776 -0.16390235747 -0.0374031943114
5.65375 -0.0986358082133 -0.102504931445 -0.75448737519 -0.0353354152282 -0.2274230223 -0.740514558238 -0.150790661877 -0.0294240975974
5.67 -0.0926079224368 -0.0908912441157 -0.76757410438 0.152990572845 -0.411278418204 -0.689378726852 -0.138326228787 -0.022473338092
5.68625 -0.0867698951942 -0.0804229734234 -0.72779474823 0.342877885891 -0.579026244257 -0.587834517209 -0.126704665192 -0.0164886702717
5.7025 -0.0812939196332 -0.0711373776169 -0.635695263126 0.518085932334 -0.715630919462 -0.44172388978 -0.116109136868 -0.011386646381 ! calibrated sweep point
5.71875 -0.0763501560457 -0.0630501961695 -0.497953948263 0.66401911932 -0.809626280374 -0.262087467134 -0.106706468369 -0.00706405370636
5.735 -0.0721032705227 -0.0561551216883 -0.325538502662 0.770175647748 -0.854797824614 -0.0626224353778 -0.0986434961768 -0.00339988991363
5.75125 -0.0687089792508 -0.0504237756093 -0.130982359914 0.830824586995 -0.849904304782 0.143102170207 -0.0920437815939 -0.000257838635112
5.7675 -0.0663106913336 -0.0458062007042 0.0737519074905 0.843908458343 -0.796917992359 0.343289555543 -0.087004782577 0.00251081008336
5.78375 -0.0650363432841 -0.0422318676285 0.277824544424 0.80923298197 -0.699110998549 0.527822969803 -0.0835955725414 0.00506386605333
5.8 -0.0649955153384 -0.0396111766017 0.47059969104 0.727380693018 -0.56031019508 0.687008174797 -0.0818551795072 0.00756465760916
5.81625 -0.0662769135006 -0.0378374194651 0.64040269054 0.600207391622 -0.385769305515 0.810510732543 -0.0817916013629 0.0101782597089
5.8325 -0.0689462919044 -0.036789152448 0.774366682584 0.432611757671 -0.183920858001 0.887730096456 -0.0833815330521 0.0130676366082
5.84875 -0.073044877954 -0.0363329165957 0.860082653771 0.234273589388 0.0324495679593 0.909882817315 -0.086570819929 0.0163898086755
5.865 -0.0785883482125 -0.0363262315286 0.888542335082 0.0199024038841 0.246831319755 0.872864842421 -0.0912756291852 0.020292153435
5.88125 -0.0855663866729 -0.0366207794697 0.856908535696 -0.192650109075 0.441586595008 0.779311122058 -0.0973843090005 0.0249089474645
5.8975 -0.0939428394859 -0.0370656906614 0.769593118993 -0.385791437117 0.601474238241 0.638603836474 -0.104759883796 0.0303582484416
5.91375 -0.103656462106 -0.0375108386112 0.637017127267 -0.545565326088 0.716461345037 0.464697859509 -0.11324311449 0.0367392056955
5.93 -0.114622236852 -0.0378100541631 0.472705309374 -0.663484570876 0.782581843166 0.272830168438 -0.122656035749 0.0441298735412
5.94625 -0.126733221759 -0.0378241711325 0.290223623475 -0.736225848232 0.800726289483 0.0767133058839 -0.132805868516 0.0525855849968
5.9625 -0.139862875924 -0.0374238229773 0.101384938099 -0.763823092928 0.774381808982 -0.112625031744 -0.143489196088 0.0621379249268
5.97875 -0.153867793026 -0.0364919194075 -0.0837791982783 -0.747752209407 0.707785787036 -0.286287389647 -0.154496286043 0.0727943219502 ! calibrated sweep point
5.995 -0.168590763605 -0.0349257435237 -0.255927575862 -0.690138430029 0.60547712607 -0.436202124987 -0.165615438526 0.0845382584226
6.01125 -0.183864078627 -0.0326386235204 -0.405475830074 -0.594399488368 0.473184140888 -0.5543702234 -0.176637243751 0.097330078217
6.0275 -0.199512981847 -0.0295611476259 -0.522849362564 -0.466595732207 0.319072618775 -0.633441018154 -0.187358637919 0.111108353673
6.04375 -0.215359176801 -0.0256419061654 -0.600044736523 -0.31626481795 0.154159442186 -0.668403165592 -0.197586656586 0.125791756614
6.06 -0.231224295697 -0.020847759835 -0.632679549776 -0.155853026741 -0.00873357078135 -0.658378154913 -0.207141797545 0.141281364334
6.07625 -0.246933241994 -0.0151636478757 -0.621336957739 0.0012483248747 -0.15716628688 -0.607388935678 -0.215860920647 0.157463320393
6.0925 -0.262317325712 -0.00859196330655 -0.571405377056 0.143196634202 -0.281384247111 -0.523571961282 -0.223599629219 0.174211762219
6.10875 -0.277217120072 -0.00115153427733 -0.491477541501 0.261571276311 -0.375670780431 -0.4171880617 -0.23023409593 0.191391923036
6.125 -0.29148497953 0.00712373945773 -0.391139069366 0.351889730268 -0.438263186066 -0.29840278204 -0.2356623145 0.208863314575
6.14125 -0.304987172099 0.016186538196 -0.279190793044 0.412827941693 -0.470154066618 -0.175806784923 -0.239804776735 0.226482899204
6.1575 -0.31760559245 0.0259779999469 -0.162942589943 0.444868755297 -0.473621304287 -0.0560986861189 -0.242604591455 0.244108165239
6.17375 -0.329239036193 0.0364297589986 -0.0485076890831 0.449251029682 -0.451295872314 0.0553522013813 -0.244027077291 0.261600026949
6.19 -0.339804029368 0.0474660796779 0.0585211159326 0.427708663242 -0.406082011024 0.153769668686 -0.244058874693 0.278825480685
6.20625 -0.349235220118 0.0590060211734 0.15271403381 0.382881465756 -0.34165081056 0.23470036863 -0.24270663346 0.295659960052
6.2225 -0.357485351262 0.0709655728671 0.229104944596 0.318850589147 -0.262906644997 0.294406824605 -0.239995340377 0.311989345666
6.23875 -0.364524842891 0.0832597048704 0.283974328695 0.241235011323 -0.175928437627 0.330629609071 -0.235966357207 0.327711598186
6.255 -0.370341022671 0.0958042850899 0.315610148121 0.156629388656 -0.0872868368011 0.343190574834 -0.230675242118 0.34273799647 ! calibrated sweep point
6.27125 -0.374937048374 0.108517821766 0.324574765113 0.0716019814536 -0.00304627179915 0.334035749212 -0.224189428062 0.356993975441
6.2875 -0.378330571975 0.121322998703 0.313325597251 -0.00827791215183 0.0720706313092 0.306672750728 -0.216585829552 0.370419570059
6.30375 -0.380552197608 0.134147978973 0.285407053195 -0.0789738532336 0.135013975439 0.265294552267 -0.207948445312 0.382969482482
6.32 -0.381643786778 0.146927461395 0.244622546831 -0.137954745697 0.184201257912 0.214002572804 -0.198366018491 0.394612798636
6.33625 -0.381656663686 0.159603482312 0.194525204683 -0.183789495068 0.219019638341 0.156412709729 -0.187929809079 0.405332387994
6.3525 -0.380649771421 0.172125962821 0.138321926116 -0.215692190629 0.23936745384 0.0956674671508 -0.176731525112 0.415124026156
6.36875 -0.378687826526 0.184453008479 0.0790420004645 -0.233277346398 0.245452854943 0.0346599858109 -0.164861450667 0.423995283929
6.385 -0.375839515081 0.196550974523 0.0197184771434 -0.23658638485 0.237858713557 -0.0237833843731 -0.152406799775 0.43196422901
6.40125 -0.372175768391 0.208394314565 -0.0366032755929 -0.226261607209 0.217719454036 -0.076916801639 -0.139450316655 0.439057987204
6.4175 -0.367768150809 0.219965234767 -0.08705661898 -0.203676942349 0.186821259866 -0.122275692684 -0.12606913422 0.445311209565
6.43375 -0.362687386349 0.231253178337 -0.129234015707 -0.170897914788 0.147522472704 -0.157935773712 -0.112333895037 0.45076449003
6.45 -0.357002044885 0.24225416722 -0.161406688341 -0.130469175938 0.102518527007 -0.18268586652 -0.0983081317718 0.455462775356
