! Generated RF sample for VNA Touchstone diagnostics
! Source: local sample generator
# GHZ S RI R 50
! freq S11
2.05 0.232332433218 0.576200788334 ! calibrated sweep point
2.0625 0.252391191605 0.570897606551
2.075 0.272584824672 0.565378985342
2.0875 0.292856625631 0.559469381106
2.1 0.313119276506 0.552985971578
2.1125 0.333257888255 0.545749853266
2.125 0.353135007085 0.537596669579
2.1375 0.37259715219 0.528385895225
2.15 0.391482202857 0.518007997655
2.1625 0.409626653319 0.506388695679
2.175 0.426871385033 0.493489543715
2.1875 0.443064171057 0.479304119909
2.2 0.458056680373 0.463849262476
2.2125 0.47169344252 0.447151206142
2.225 0.483790354068 0.429227277078
2.2375 0.494101292956 0.410065141404
2.25 0.502273760355 0.389603464845
2.2625 0.507798570193 0.367719947263 ! calibrated sweep point
2.275 0.509964370373 0.344234371516
2.2875 0.507834272744 0.318934495147
2.3 0.500267040603 0.291630118651
2.3125 0.486006093316 0.262234659001
2.325 0.463852765248 0.230864268987
2.3375 0.432923710906 0.197933822648
2.35 0.392966897748 0.164220463788
2.3625 0.344681272741 0.13086329865
2.375 0.289960991078 0.0992758367222
2.3875 0.231977017106 0.070966765942
2.4 0.175025786122 0.0472911311498
2.4125 0.12411857753 0.029180321485
2.425 0.0843486586732 0.0169157714051
2.4375 0.0601391942924 0.0100099065333
2.45 0.0545219197088 0.00723603975008
2.4625 0.068606384781 0.00681154936331
2.475 0.101364802778 0.00669710450758 ! calibrated sweep point
2.4875 0.149785750168 0.00494273392859
2.5 0.209361920755 0
2.5125 0.274799546418 -0.00906802576425
2.525 0.340792822791 -0.0225159531426
2.5375 0.402706614788 -0.0399825175793
2.55 0.457050680439 -0.0606588489385
2.5625 0.501692273977 -0.0835044903757
2.575 0.535819860708 -0.107456436423
2.5875 0.559720344344 -0.13159045096
2.6 0.574455749547 -0.15521519882
2.6125 0.581522755543 -0.177900335979
2.625 0.582557451294 -0.199453996211
2.6375 0.579118960042 -0.21987100378
2.65 0.572558847038 -0.23927175532
2.6625 0.563964451299 -0.257845982724
2.675 0.554155181267 -0.275808705722
2.6875 0.543709856786 -0.293369920359 ! calibrated sweep point
2.7 0.53300727786 -0.31071600379
2.7125 0.522268219987 -0.327999428185
2.725 0.511592724168 -0.345333537218
2.7375 0.500990710894 -0.362790067957
2.75 0.490406367292 -0.380398171197
2.7625 0.479737747718 -0.398144530605
2.775 0.46885309687 -0.415974680824
2.7875 0.457605021018 -0.433795806004
2.8 0.445843129214 -0.451481258819
2.8125 0.433425327634 -0.46887687784
2.825 0.42022764987 -0.485808977743
2.8375 0.40615235081 -0.50209369314
2.85 0.391133957282 -0.517547200226
2.8625 0.375143021801 -0.531996233055
2.875 0.358187435326 -0.545288256482
2.8875 0.340311294952 -0.557300654629
2.9 0.3215914725 -0.56794833859 ! calibrated sweep point
2.9125 0.302132174005 -0.577189264674
2.925 0.282057905512 -0.585027477659
2.9375 0.261505357934 -0.591513443856
2.95 0.240614785972 -0.596741606161
